!CSV A.01.01,,,,,,,,,,,,
!Ceyear Technologies,3672E,ZFL00040,2.1.5,,,,,,,,,
!Date:,2022/6/12 12:11,,,,,,,,,,,
!Source:,GCA Sweep Data,,,,,,,,,,,
,,,,,,,,,,,,
Calibration State:,ON,,,,,,,,,,,
Num Freq Points: ,101,,,,,,,,,,,
Num Iterations: ,30,,,,,,,,,,,
,,,,,,,,,,,,
Frequncy,S11,,Pin Data,,Pout Data,,S21,,Delta Gain,,AI1,AI2
<Hz>,<LogMag (dB)>,<Phase (Deg)>,<LogMag (dBm)>,<Phase (Deg)>,<LogMag (dBm)>,<Phase (Deg)>,<LogMag (dB)>,<Phase (Deg)>,<LogMag (dB)>,<Phase (Deg)>,<Real (U)>,<Real (U)>
2.00E+09,-0.095366,-18.296985,-10.378778,-122.698459,4.173073,42.657874,14.826614,165.554401,-0.274763,-0.198068,0,0
2.00E+09,-0.095366,-18.296985,-9.871502,-122.221557,4.645381,43.118225,14.826614,165.554401,-0.309731,-0.214619,0,0
2.00E+09,-0.095366,-18.296985,-9.362414,-121.675144,5.132022,43.651512,14.826614,165.554401,-0.332179,-0.227746,0,0
2.00E+09,-0.095366,-18.296985,-8.853709,-121.080399,5.575672,44.226041,14.826614,165.554401,-0.397233,-0.247961,0,0
2.00E+09,-0.095366,-18.296985,-8.343059,-120.494485,6.042482,44.788665,14.826614,165.554401,-0.441073,-0.271251,0,0
2.00E+09,-0.095366,-18.296985,-7.832264,-119.852745,6.512008,45.412117,14.826614,165.554401,-0.482342,-0.289539,0,0
2.00E+09,-0.095366,-18.296985,-7.319745,-119.230504,6.949846,46.016007,14.826614,165.554401,-0.557023,-0.30789,0,0
2.00E+09,-0.095366,-18.296985,-6.805913,-118.627217,7.393084,46.604311,14.826614,165.554401,-0.627618,-0.322874,0,0
2.00E+09,-0.095366,-18.296985,-6.29175,-117.986487,7.844973,47.235809,14.826614,165.554401,-0.689892,-0.332104,0,0
2.00E+09,-0.095366,-18.296985,-5.776244,-117.311543,8.255738,47.905539,14.826614,165.554401,-0.794633,-0.337319,0,0
2.00E+09,-0.095366,-18.296985,-5.260932,-116.676514,8.67311,48.528197,14.826614,165.554401,-0.892572,-0.34969,0,0
2.00E+09,-0.095366,-18.296985,-4.744909,-116.040379,9.083625,49.165498,14.826614,165.554401,-0.99808,-0.348524,0,0
2.00E+09,-0.095366,-18.296985,-4.227852,-115.373712,9.456459,49.854017,14.826614,165.554401,-1.142303,-0.326672,0,0
2.00E+09,-0.095366,-18.296985,-3.709894,-114.766832,9.828951,50.472648,14.826614,165.554401,-1.287769,-0.314921,0,0
2.00E+09,-0.095366,-18.296985,-3.191365,-114.105011,10.18432,51.149998,14.826614,165.554401,-1.450929,-0.299392,0,0
2.00E+09,-0.095366,-18.296985,-2.673004,-113.469755,10.504317,51.820229,14.826614,165.554401,-1.649293,-0.264417,0,0
2.00E+09,-0.095366,-18.296985,-2.154202,-112.849176,10.808553,52.472705,14.826614,165.554401,-1.86386,-0.23252,0,0
2.00E+09,-0.095366,-18.296985,-1.635219,-112.189102,11.107531,53.185645,14.826614,165.554401,-2.083865,-0.179654,0,0
2.00E+09,-0.095366,-18.296985,-1.117661,-111.533709,11.358194,53.882975,14.826614,165.554401,-2.350759,-0.137717,0,0
2.00E+09,-0.095366,-18.296985,-0.59971,-110.899675,11.592743,54.579945,14.826614,165.554401,-2.634161,-0.074781,0,0
2.00E+09,-0.095366,-18.296985,-0.083,-110.244262,11.804115,55.288,14.826614,165.554401,-2.939499,-0.022139,0,0
2.00E+09,-0.095366,-18.296985,0.432895,-109.608112,11.977386,55.96981,14.826614,165.554401,-3.282123,0.023521,0,0
2.00E+09,-0.095366,-18.296985,0.947724,-109.022573,12.128863,56.595308,14.826614,165.554401,-3.645475,0.06348,0,0
2.00E+09,-0.095366,-18.296985,1.462402,-108.431194,12.265632,57.230387,14.826614,165.554401,-4.023385,0.107181,0,0
2.00E+09,-0.095366,-18.296985,1.974862,-107.859895,12.374599,57.818195,14.826614,165.554401,-4.426877,0.12369,0,0
2.00E+09,-0.095366,-18.296985,2.486257,-107.27865,12.468384,58.428266,14.826614,165.554401,-4.844488,0.152515,0,0
2.00E+09,-0.095366,-18.296985,2.994158,-106.599936,12.556076,59.128888,14.826614,165.554401,-5.264696,0.174422,0,0
2.00E+09,-0.095366,-18.296985,3.502071,-105.648643,12.622677,60.090962,14.826614,165.554401,-5.706008,0.185204,0,0
2.00E+09,-0.095366,-18.296985,4.008031,-104.33795,12.68385,61.412373,14.826614,165.554401,-6.150795,0.195922,0,0
2.00E+09,-0.095366,-18.296985,4.512206,-103.239647,12.736097,62.51723,14.826614,165.554401,-6.602723,0.202477,0,0
2.04E+09,-0.082174,-18.714928,-10.09305,-126.129618,4.49363,38.850587,14.835565,165.183355,-0.248884,-0.20315,0,0
2.04E+09,-0.082174,-18.714928,-9.58748,-125.684079,4.986315,39.287615,14.835565,165.183355,-0.261769,-0.211661,0,0
2.04E+09,-0.082174,-18.714928,-9.078489,-125.151849,5.438567,39.795297,14.835565,165.183355,-0.318509,-0.236209,0,0
2.04E+09,-0.082174,-18.714928,-8.568585,-124.646807,5.912356,40.284131,14.835565,165.183355,-0.354623,-0.252416,0,0
2.04E+09,-0.082174,-18.714928,-8.058217,-124.144861,6.399022,40.758798,14.835565,165.183355,-0.378326,-0.279696,0,0
2.04E+09,-0.082174,-18.714928,-7.547741,-123.637437,6.838664,41.249452,14.835565,165.183355,-0.44916,-0.296466,0,0
2.04E+09,-0.082174,-18.714928,-7.035049,-123.152517,7.298731,41.719233,14.835565,165.183355,-0.501785,-0.311604,0,0
2.04E+09,-0.082174,-18.714928,-6.521084,-122.601374,7.76247,42.257496,14.835565,165.183355,-0.552011,-0.324485,0,0
2.04E+09,-0.082174,-18.714928,-6.005871,-122.050433,8.198188,42.795696,14.835565,165.183355,-0.631506,-0.337225,0,0
2.04E+09,-0.082174,-18.714928,-5.491525,-121.461499,8.631929,43.378667,14.835565,165.183355,-0.71211,-0.343189,0,0
2.04E+09,-0.082174,-18.714928,-4.974986,-120.941083,9.0725,43.882866,14.835565,165.183355,-0.788079,-0.359405,0,0
2.04E+09,-0.082174,-18.714928,-4.4586,-120.353642,9.468391,44.475147,14.835565,165.183355,-0.908573,-0.354565,0,0
2.04E+09,-0.082174,-18.714928,-3.941203,-119.754349,9.87045,45.072703,14.835565,165.183355,-1.023911,-0.356302,0,0
2.04E+09,-0.082174,-18.714928,-3.424421,-119.192833,10.264485,45.645541,14.835565,165.183355,-1.146659,-0.34498,0,0
2.04E+09,-0.082174,-18.714928,-2.905532,-118.62451,10.615883,46.235367,14.835565,165.183355,-1.31415,-0.323478,0,0
2.04E+09,-0.082174,-18.714928,-2.38672,-117.983811,10.963076,46.900043,14.835565,165.183355,-1.485768,-0.2995,0,0
2.04E+09,-0.082174,-18.714928,-1.867486,-117.380364,11.29804,47.539755,14.835565,165.183355,-1.670039,-0.263235,0,0
2.04E+09,-0.082174,-18.714928,-1.350401,-116.797229,11.588529,48.16237,14.835565,165.183355,-1.896634,-0.223755,0,0
2.04E+09,-0.082174,-18.714928,-0.831852,-116.191801,11.862546,48.81828,14.835565,165.183355,-2.141167,-0.173274,0,0
2.04E+09,-0.082174,-18.714928,-0.314077,-115.60696,12.124127,49.454283,14.835565,165.183355,-2.397361,-0.122111,0,0
2.04E+09,-0.082174,-18.714928,0.202663,-114.97594,12.339175,50.139882,14.835565,165.183355,-2.699053,-0.067533,0,0
2.04E+09,-0.082174,-18.714928,0.717084,-114.405667,12.53433,50.7715,14.835565,165.183355,-3.018319,-0.006187,0,0
2.04E+09,-0.082174,-18.714928,1.231993,-113.790876,12.709246,51.428655,14.835565,165.183355,-3.358312,0.036175,0,0
2.04E+09,-0.082174,-18.714928,1.746131,-113.189944,12.849837,52.083219,14.835565,165.183355,-3.731858,0.089809,0,0
2.04E+09,-0.082174,-18.714928,2.258491,-112.610476,12.971531,52.696073,14.835565,165.183355,-4.122524,0.123194,0,0
2.04E+09,-0.082174,-18.714928,2.767439,-111.973376,13.083756,53.37153,14.835565,165.183355,-4.519248,0.161551,0,0
2.04E+09,-0.082174,-18.714928,3.275713,-111.350704,13.171705,54.02939,14.835565,165.183355,-4.939573,0.196738,0,0
2.04E+09,-0.082174,-18.714928,3.78249,-110.70957,13.251473,54.70376,14.835565,165.183355,-5.366582,0.229976,0,0
2.04E+09,-0.082174,-18.714928,4.286951,-110.136786,13.322731,55.305253,14.835565,165.183355,-5.799785,0.258685,0,0
2.04E+09,-0.082174,-18.714928,4.787909,-109.504184,13.378924,55.967085,14.835565,165.183355,-6.24455,0.287914,0,0
2.08E+09,-0.114719,-19.303242,-10.403436,86.221561,4.143812,-109.080015,14.786316,164.904519,-0.239068,-0.206096,0,0
2.08E+09,-0.114719,-19.303242,-9.8963,86.682397,4.603627,-108.649122,14.786316,164.904519,-0.286389,-0.236038,0,0
2.08E+09,-0.114719,-19.303242,-9.387884,87.137866,5.07554,-108.203782,14.786316,164.904519,-0.322892,-0.246167,0,0
2.08E+09,-0.114719,-19.303242,-8.878194,87.629624,5.560295,-107.736459,14.786316,164.904519,-0.347827,-0.270603,0,0
2.08E+09,-0.114719,-19.303242,-8.368363,88.078941,6.010234,-107.297508,14.786316,164.904519,-0.407718,-0.280968,0,0
2.08E+09,-0.114719,-19.303242,-7.857462,88.591618,6.474033,-106.807406,14.786316,164.904519,-0.454822,-0.303544,0,0
2.08E+09,-0.114719,-19.303242,-7.344348,89.092875,6.948108,-106.320556,14.786316,164.904519,-0.49386,-0.31795,0,0
2.08E+09,-0.114719,-19.303242,-6.830329,89.610985,7.387349,-105.823476,14.786316,164.904519,-0.568638,-0.338981,0,0
2.08E+09,-0.114719,-19.303242,-6.317334,90.12593,7.837313,-105.326982,14.786316,164.904519,-0.631669,-0.357431,0,0
2.08E+09,-0.114719,-19.303242,-5.800623,90.666618,8.290165,-104.793452,14.786316,164.904519,-0.695528,-0.364589,0,0
2.08E+09,-0.114719,-19.303242,-5.284318,91.169484,8.705763,-104.294722,14.786316,164.904519,-0.796234,-0.368725,0,0
2.08E+09,-0.114719,-19.303242,-4.767858,91.701225,9.121674,-103.777281,14.786316,164.904519,-0.896784,-0.383026,0,0
2.08E+09,-0.114719,-19.303242,-4.251707,92.276641,9.540305,-103.195886,14.786316,164.904519,-0.994305,-0.377046,0,0
2.08E+09,-0.114719,-19.303242,-3.734097,92.797785,9.91389,-102.669679,14.786316,164.904519,-1.13833,-0.371983,0,0
2.08E+09,-0.114719,-19.303242,-3.215161,93.384511,10.286357,-102.072962,14.786316,164.904519,-1.284798,-0.361992,0,0
2.08E+09,-0.114719,-19.303242,-2.696454,93.961965,10.646793,-101.481488,14.786316,164.904519,-1.443069,-0.347972,0,0
2.08E+09,-0.114719,-19.303242,-2.179918,94.54869,10.962638,-100.86667,14.786316,164.904519,-1.64376,-0.319879,0,0
2.08E+09,-0.114719,-19.303242,-1.661561,95.111743,11.266794,-100.273658,14.786316,164.904519,-1.857962,-0.289921,0,0
2.08E+09,-0.114719,-19.303242,-1.14369,95.689437,11.552676,-99.670595,14.786316,164.904519,-2.08995,-0.264552,0,0
2.08E+09,-0.114719,-19.303242,-0.626813,96.285717,11.795075,-99.034323,14.786316,164.904519,-2.364428,-0.224559,0,0
2.08E+09,-0.114719,-19.303242,-0.112838,96.875382,12.014044,-98.415997,14.786316,164.904519,-2.659434,-0.195898,0,0
2.08E+09,-0.114719,-19.303242,0.401418,97.449299,12.215707,-97.809916,14.786316,164.904519,-2.972027,-0.163735,0,0
2.08E+09,-0.114719,-19.303242,0.914376,98.051733,12.374419,-97.192631,14.786316,164.904519,-3.326273,-0.148883,0,0
2.08E+09,-0.114719,-19.303242,1.427549,98.624131,12.519619,-96.607427,14.786316,164.904519,-3.694245,-0.136078,0,0
2.08E+09,-0.114719,-19.303242,1.936969,99.244995,12.649872,-95.982632,14.786316,164.904519,-4.073413,-0.132147,0,0
2.08E+09,-0.114719,-19.303242,2.445895,99.813222,12.757528,-95.416115,14.786316,164.904519,-4.474683,-0.133857,0,0
2.08E+09,-0.114719,-19.303242,2.953721,100.409483,12.85163,-94.824117,14.786316,164.904519,-4.888407,-0.13812,0,0
2.08E+09,-0.114719,-19.303242,3.460169,101.046458,12.939517,-94.183104,14.786316,164.904519,-5.306968,-0.134082,0,0
2.08E+09,-0.114719,-19.303242,3.963406,101.707152,13.009697,-93.536366,14.786316,164.904519,-5.740025,-0.148037,0,0
2.08E+09,-0.114719,-19.303242,4.466032,102.30349,13.074022,-92.946371,14.786316,164.904519,-6.178325,-0.15438,0,0
2.12E+09,-0.082286,-19.539523,-10.375398,-53.811011,4.190051,110.567176,14.838966,164.563918,-0.273517,-0.185731,0,0
2.12E+09,-0.082286,-19.539523,-9.86966,-53.351094,4.664093,111.011338,14.838966,164.563918,-0.305213,-0.201485,0,0
2.12E+09,-0.082286,-19.539523,-9.360903,-52.887919,5.14598,111.450555,14.838966,164.563918,-0.332083,-0.225444,0,0
2.12E+09,-0.082286,-19.539523,-8.851515,-52.417139,5.602556,111.918888,14.838966,164.563918,-0.384894,-0.227891,0,0
2.12E+09,-0.082286,-19.539523,-8.340539,-51.991299,6.061132,112.321766,14.838966,164.563918,-0.437294,-0.250852,0,0
2.12E+09,-0.082286,-19.539523,-7.830336,-51.516847,6.541064,112.791693,14.838966,164.563918,-0.467566,-0.255377,0,0
2.12E+09,-0.082286,-19.539523,-7.316639,-50.989178,6.97846,113.322815,14.838966,164.563918,-0.543867,-0.251925,0,0
2.12E+09,-0.082286,-19.539523,-6.802132,-50.484024,7.42995,113.817464,14.838966,164.563918,-0.606884,-0.262429,0,0
2.12E+09,-0.082286,-19.539523,-6.287314,-49.980654,7.883997,114.323105,14.838966,164.563918,-0.667656,-0.260159,0,0
2.12E+09,-0.082286,-19.539523,-5.772336,-49.495445,8.304635,114.817333,14.838966,164.563918,-0.761995,-0.251139,0,0
2.12E+09,-0.082286,-19.539523,-5.255873,-48.938048,8.726543,115.386809,14.838966,164.563918,-0.85655,-0.23906,0,0
2.12E+09,-0.082286,-19.539523,-4.739094,-48.437008,9.148224,115.906784,14.838966,164.563918,-0.951648,-0.220125,0,0
2.12E+09,-0.082286,-19.539523,-4.220998,-47.905361,9.530939,116.482385,14.838966,164.563918,-1.087029,-0.176171,0,0
2.12E+09,-0.082286,-19.539523,-3.704442,-47.337533,9.901371,117.095139,14.838966,164.563918,-1.233153,-0.131245,0,0
2.12E+09,-0.082286,-19.539523,-3.185888,-46.77957,10.269544,117.711264,14.838966,164.563918,-1.383534,-0.073083,0,0
2.12E+09,-0.082286,-19.539523,-2.666399,-46.211952,10.590655,118.341729,14.838966,164.563918,-1.581912,-0.010237,0,0
2.12E+09,-0.082286,-19.539523,-2.148392,-45.633995,10.905417,119.002891,14.838966,164.563918,-1.785157,0.072969,0,0
2.12E+09,-0.082286,-19.539523,-1.6298,-45.049021,11.203781,119.668914,14.838966,164.563918,-2.005385,0.154017,0,0
2.12E+09,-0.082286,-19.539523,-1.110822,-44.444681,11.46277,120.368026,14.838966,164.563918,-2.265375,0.248789,0,0
2.12E+09,-0.082286,-19.539523,-0.592974,-43.876168,11.700104,121.03238,14.838966,164.563918,-2.545887,0.344631,0,0
2.12E+09,-0.082286,-19.539523,-0.07775,-43.307443,11.920178,121.695328,14.838966,164.563918,-2.841038,0.438854,0,0
2.12E+09,-0.082286,-19.539523,0.437615,-42.703522,12.097468,122.385856,14.838966,164.563918,-3.179113,0.52546,0,0
2.12E+09,-0.082286,-19.539523,0.953475,-42.101017,12.255414,123.070979,14.838966,164.563918,-3.537026,0.608079,0,0
2.12E+09,-0.082286,-19.539523,1.467564,-41.514776,12.397095,123.729939,14.838966,164.563918,-3.909435,0.680798,0,0
2.12E+09,-0.082286,-19.539523,1.979072,-40.880851,12.511672,124.430431,14.838966,164.563918,-4.306367,0.747364,0,0
2.12E+09,-0.082286,-19.539523,2.490155,-40.304934,12.611124,125.073894,14.838966,164.563918,-4.717997,0.81491,0,0
2.12E+09,-0.082286,-19.539523,2.999529,-39.718429,12.700833,125.728726,14.838966,164.563918,-5.137662,0.883237,0,0
2.12E+09,-0.082286,-19.539523,3.506817,-39.064204,12.777406,126.44311,14.838966,164.563918,-5.568377,0.943396,0,0
2.12E+09,-0.082286,-19.539523,4.010845,-38.480231,12.840291,127.080788,14.838966,164.563918,-6.00952,0.997101,0,0
2.12E+09,-0.082286,-19.539523,4.514466,-37.892892,12.897589,127.731019,14.838966,164.563918,-6.455843,1.059994,0,0
2.16E+09,-0.112753,-20.146848,-10.350253,16.920288,4.223603,-179.01318,14.811934,164.275216,-0.238078,-0.208685,0,0
2.16E+09,-0.112753,-20.146848,-9.841199,17.390715,4.718409,-178.551678,14.811934,164.275216,-0.252326,-0.217609,0,0
2.16E+09,-0.112753,-20.146848,-9.332345,17.825424,5.175506,-178.151777,14.811934,164.275216,-0.304082,-0.252417,0,0
2.16E+09,-0.112753,-20.146848,-8.823251,18.277673,5.646437,-177.714887,14.811934,164.275216,-0.342246,-0.267776,0,0
2.16E+09,-0.112753,-20.146848,-8.311728,18.743899,6.131762,-177.273114,14.811934,164.275216,-0.368444,-0.29223,0,0
2.16E+09,-0.112753,-20.146848,-7.799065,19.224522,6.578806,-176.812051,14.811934,164.275216,-0.434064,-0.311789,0,0
2.16E+09,-0.112753,-20.146848,-7.28528,19.694288,7.032841,-176.360302,14.811934,164.275216,-0.493813,-0.329807,0,0
2.16E+09,-0.112753,-20.146848,-6.771568,20.200989,7.504151,-175.880169,14.811934,164.275216,-0.536214,-0.356375,0,0
2.16E+09,-0.112753,-20.146848,-6.255988,20.717015,7.932148,-175.387639,14.811934,164.275216,-0.623798,-0.37987,0,0
2.16E+09,-0.112753,-20.146848,-5.738873,21.249033,8.371364,-174.874556,14.811934,164.275216,-0.701697,-0.398806,0,0
2.16E+09,-0.112753,-20.146848,-5.222263,21.79569,8.807135,-174.34458,14.811934,164.275216,-0.782536,-0.415486,0,0
2.16E+09,-0.112753,-20.146848,-4.706694,22.319981,9.211302,-173.837756,14.811934,164.275216,-0.893938,-0.432954,0,0
2.16E+09,-0.112753,-20.146848,-4.188589,22.876484,9.607533,-173.296026,14.811934,164.275216,-1.015811,-0.447726,0,0
2.16E+09,-0.112753,-20.146848,-3.66987,23.396732,9.999346,-172.779155,14.811934,164.275216,-1.142718,-0.451103,0,0
2.16E+09,-0.112753,-20.146848,-3.151088,24.007131,10.355729,-172.164702,14.811934,164.275216,-1.305117,-0.44705,0,0
2.16E+09,-0.112753,-20.146848,-2.633515,24.561368,10.698743,-171.598831,14.811934,164.275216,-1.479676,-0.435415,0,0
2.16E+09,-0.112753,-20.146848,-2.114766,25.184336,11.02958,-170.962603,14.811934,164.275216,-1.667588,-0.422155,0,0
2.16E+09,-0.112753,-20.146848,-1.596258,25.729127,11.325114,-170.399587,14.811934,164.275216,-1.890562,-0.40393,0,0
2.16E+09,-0.112753,-20.146848,-1.078405,26.294955,11.606641,-169.801036,14.811934,164.275216,-2.126887,-0.371208,0,0
2.16E+09,-0.112753,-20.146848,-0.562698,26.911307,11.865485,-169.147711,14.811934,164.275216,-2.38375,-0.334233,0,0
2.16E+09,-0.112753,-20.146848,-0.046645,27.446662,12.1012,-168.5682,14.811934,164.275216,-2.66409,-0.290079,0,0
2.16E+09,-0.112753,-20.146848,0.468664,28.057437,12.30661,-167.916799,14.811934,164.275216,-2.973988,-0.249453,0,0
2.16E+09,-0.112753,-20.146848,0.983072,28.67718,12.49268,-167.254302,14.811934,164.275216,-3.302326,-0.206698,0,0
2.16E+09,-0.112753,-20.146848,1.494093,29.253573,12.648983,-166.6313,14.811934,164.275216,-3.657043,-0.16009,0,0
2.16E+09,-0.112753,-20.146848,2.00554,29.876438,12.783795,-165.976157,14.811934,164.275216,-4.033679,-0.127811,0,0
2.16E+09,-0.112753,-20.146848,2.514725,30.457021,12.901943,-165.361156,14.811934,164.275216,-4.424716,-0.093393,0,0
2.16E+09,-0.112753,-20.146848,3.022156,31.078297,13.008645,-164.723055,14.811934,164.275216,-4.825445,-0.076568,0,0
2.16E+09,-0.112753,-20.146848,3.52646,31.707404,13.097051,-164.065181,14.811934,164.275216,-5.241343,-0.047801,0,0
2.16E+09,-0.112753,-20.146848,4.029504,32.298467,13.176586,-163.45533,14.811934,164.275216,-5.664852,-0.029013,0,0
2.16E+09,-0.112753,-20.146848,4.531542,32.931732,13.249232,-162.80266,14.811934,164.275216,-6.094244,-0.009608,0,0
2.20E+09,-0.073063,-20.726945,-10.054043,-129.24348,4.484798,34.51886,14.796347,164.01898,-0.257506,-0.256641,0,0
2.20E+09,-0.073063,-20.726945,-9.546628,-128.818045,4.941089,34.914742,14.796347,164.01898,-0.30863,-0.286194,0,0
2.20E+09,-0.073063,-20.726945,-9.037358,-128.360227,5.410805,35.348482,14.796347,164.01898,-0.348184,-0.310271,0,0
2.20E+09,-0.073063,-20.726945,-8.526956,-127.944826,5.892335,35.742124,14.796347,164.01898,-0.377056,-0.33203,0,0
2.20E+09,-0.073063,-20.726945,-8.01539,-127.506672,6.344248,36.152433,14.796347,164.01898,-0.436709,-0.359874,0,0
2.20E+09,-0.073063,-20.726945,-7.503819,-126.996117,6.802711,36.638094,14.796347,164.01898,-0.489817,-0.384769,0,0
2.20E+09,-0.073063,-20.726945,-6.990085,-126.54316,7.269531,37.079357,14.796347,164.01898,-0.536732,-0.396464,0,0
2.20E+09,-0.073063,-20.726945,-6.474945,-126.031303,7.712393,37.558219,14.796347,164.01898,-0.60901,-0.429459,0,0
2.20E+09,-0.073063,-20.726945,-5.958941,-125.502954,8.149154,38.056939,14.796347,164.01898,-0.688252,-0.459087,0,0
2.20E+09,-0.073063,-20.726945,-5.444412,-125.036022,8.590466,38.514893,14.796347,164.01898,-0.761469,-0.468066,0,0
2.20E+09,-0.073063,-20.726945,-4.927159,-124.528364,9.004456,38.991641,14.796347,164.01898,-0.864732,-0.498975,0,0
2.20E+09,-0.073063,-20.726945,-4.409311,-123.949092,9.409426,39.55287,14.796347,164.01898,-0.97761,-0.517019,0,0
2.20E+09,-0.073063,-20.726945,-3.89086,-123.432905,9.806187,40.040776,14.796347,164.01898,-1.099301,-0.545298,0,0
2.20E+09,-0.073063,-20.726945,-3.373939,-122.90948,10.179715,40.56052,14.796347,164.01898,-1.242693,-0.54898,0,0
2.20E+09,-0.073063,-20.726945,-2.855121,-122.29836,10.527995,41.151969,14.796347,164.01898,-1.413231,-0.568651,0,0
2.20E+09,-0.073063,-20.726945,-2.33532,-121.780976,10.865818,41.66476,14.796347,164.01898,-1.59521,-0.573244,0,0
2.20E+09,-0.073063,-20.726945,-1.816474,-121.220521,11.17662,42.226447,14.796347,164.01898,-1.803253,-0.572012,0,0
